name,type,start_time,duration
"Test Analyzer","error",0.0040868,0.0021974
"Test Analyzer","error",0.0094821,0.0017001
"Test Analyzer","enable",0.0137267,0.0000001
"Test Analyzer","disable",0.0166095,0.0000001
"Test Analyzer","error",0.019399,0.0024472
"Test Analyzer","error",0.0243865,0.0006908
"Test Analyzer","error",0.0260173,0.0001709
"Test Analyzer","error",0.0274871,0.0030533
"Test Analyzer","enable",0.0321609,0.0000001
"Test Analyzer","disable",0.0344849,0.0000001
"Test Analyzer","error",0.0361301,0.0013922
"Test Analyzer","error",0.0383223,0.0019659
"Test Analyzer","enable",0.0419875,0.0000001
"Test Analyzer","disable",0.0422588,0.0000001
"Test Analyzer","error",0.0440274,0.0019928
"Test Analyzer","enable",0.0490399,0.0000001
"Test Analyzer","disable",0.0494412,0.0000001
"Test Analyzer","enable",0.0496438,0.0000001
"Test Analyzer","disable",0.0503441,0.0000001
"Test Analyzer","error",0.0520137,0.0018336
"Test Analyzer","error",0.0552123,0.000119
"Test Analyzer","enable",0.0560421,0.0000001
"Test Analyzer","disable",0.0574687,0.0000001
"Test Analyzer","enable",0.0605368,0.0000001
"Test Analyzer","disable",0.0626984,0.0000001
"Test Analyzer","enable",0.0651976,0.0000001
"Test Analyzer","disable",0.0673204,0.0000001
"Test Analyzer","error",0.0677205,0.0002463
"Test Analyzer","error",0.0681434,0.000041
"Test Analyzer","error",0.0703488,0.001094
"Test Analyzer","error",0.0717433,0.0007608
"Test Analyzer","enable",0.073549,0.0000001
"Test Analyzer","disable",0.0751136,0.0000001
"Test Analyzer","error",0.0774872,0.0030568
"Test Analyzer","enable",0.0812979,0.0000001
"Test Analyzer","disable",0.0815168,0.0000001
"Test Analyzer","error",0.081767,0.0011905
"Test Analyzer","error",0.0848342,0.0008906
"Test Analyzer","enable",0.0860211,0.0000001
"Test Analyzer","disable",0.087399,0.0000001
"Test Analyzer","error",0.0886932,0.0032731
"Test Analyzer","error",0.094965,0.0013141
"Test Analyzer","enable",0.0969238,0.0000001
"Test Analyzer","disable",0.0994546,0.0000001
"Test Analyzer","enable",0.1015247,0.0000001
"Test Analyzer","disable",0.1047212,0.0000001
"Test Analyzer","error",0.1066824,0.0030409
"Test Analyzer","enable",0.1114354,0.0000001
"Test Analyzer","disable",0.1143265,0.0000001
"Test Analyzer","enable",0.11591,0.0000001
"Test Analyzer","disable",0.1163017,0.0000001
"Test Analyzer","enable",0.1169097,0.0000001
"Test Analyzer","disable",0.1200159,0.0000001
"Test Analyzer","error",0.1201319,0.0019111
"Test Analyzer","enable",0.1243074,0.0000001
"Test Analyzer","disable",0.1270827,0.0000001
"Test Analyzer","error",0.1282098,0.0008438
"Test Analyzer","error",0.1319778,0.0029346
"Test Analyzer","enable",0.136854,0.0000001
"Test Analyzer","disable",0.1393508,0.0000001
"Test Analyzer","error",0.1406803,0.0007752
"Test Analyzer","enable",0.144601,0.0000001
"Test Analyzer","disable",0.1448144,0.0000001
"Test Analyzer","enable",0.1479231,0.0000001
"Test Analyzer","disable",0.1503483,0.0000001
"Test Analyzer","error",0.1515677,0.0018152
"Test Analyzer","enable",0.1555694,0.0000001
"Test Analyzer","disable",0.1580628,0.0000001
"Test Analyzer","enable",0.1591084,0.0000001
"Test Analyzer","disable",0.1613597,0.0000001
"Test Analyzer","enable",0.1627025,0.0000001
"Test Analyzer","disable",0.1633822,0.0000001
"Test Analyzer","error",0.1633957,0.0020502
"Test Analyzer","error",0.1673615,0.0031187
"Test Analyzer","error",0.1732629,0.0015943
"Test Analyzer","enable",0.1756568,0.0000001
"Test Analyzer","disable",0.1781662,0.0000001
"Test Analyzer","error",0.1785552,0.0008269
"Test Analyzer","error",0.1810485,0.0010689
"Test Analyzer","error",0.1831375,0.0023224
"Test Analyzer","error",0.1858609,0.00115
"Test Analyzer","error",0.1895906,0.0017173
"Test Analyzer","enable",0.1926455,0.0000001
"Test Analyzer","disable",0.1940932,0.0000001
"Test Analyzer","enable",0.1967394,0.0000001
"Test Analyzer","disable",0.1968533,0.0000001
"Test Analyzer","error",0.1985699,0.0006993
"Test Analyzer","enable",0.202321,0.0000001
"Test Analyzer","disable",0.203476,0.0000001
"Test Analyzer","enable",0.2057577,0.0000001
"Test Analyzer","disable",0.2069875,0.0000001
"Test Analyzer","enable",0.2084187,0.0000001
"Test Analyzer","disable",0.2092488,0.0000001
"Test Analyzer","error",0.2106095,0.0032215
"Test Analyzer","error",0.2147422,0.0017757
"Test Analyzer","error",0.2186741,0.0021419
"Test Analyzer","enable",0.2235448,0.0000001
"Test Analyzer","disable",0.2249855,0.0000001
"Test Analyzer","enable",0.2253376,0.0000001
"Test Analyzer","disable",0.2254945,0.0000001
"Test Analyzer","error",0.2279797,0.0004782
"Test Analyzer","error",0.2295015,0.0016176
"Test Analyzer","error",0.2323193,0.0024213
"Test Analyzer","enable",0.2375322,0.0000001
"Test Analyzer","disable",0.2404834,0.0000001
"Test Analyzer","enable",0.2431051,0.0000001
"Test Analyzer","disable",0.2451026,0.0000001
"Test Analyzer","error",0.2464515,0.0015204
"Test Analyzer","enable",0.2489413,0.0000001
"Test Analyzer","disable",0.2503204,0.0000001
"Test Analyzer","enable",0.2527183,0.0000001
"Test Analyzer","disable",0.2558291,0.0000001
"Test Analyzer","enable",0.2560934,0.0000001
"Test Analyzer","disable",0.2591337,0.0000001
"Test Analyzer","error",0.2616584,0.0017469
"Test Analyzer","enable",0.2639914,0.0000001
"Test Analyzer","disable",0.2667645,0.0000001
"Test Analyzer","enable",0.2697674,0.0000001
"Test Analyzer","disable",0.270347,0.0000001
"Test Analyzer","error",0.2723002,0.0011514
"Test Analyzer","enable",0.2743737,0.0000001
"Test Analyzer","disable",0.2755737,0.0000001
"Test Analyzer","error",0.2760025,0.0019214
"Test Analyzer","enable",0.2794641,0.0000001
"Test Analyzer","disable",0.279719,0.0000001
"Test Analyzer","enable",0.2797489,0.0000001
"Test Analyzer","disable",0.2799413,0.0000001
"Test Analyzer","error",0.2829803,0.0004632
"Test Analyzer","enable",0.2851604,0.0000001
"Test Analyzer","disable",0.2856259,0.0000001
"Test Analyzer","error",0.2870615,0.0018525
"Test Analyzer","enable",0.2890533,0.0000001
"Test Analyzer","disable",0.2896134,0.0000001
"Test Analyzer","enable",0.2923201,0.0000001
"Test Analyzer","disable",0.2933752,0.0000001
"Test Analyzer","error",0.2943114,0.0029466
"Test Analyzer","error",0.2975486,0.0008059
"Test Analyzer","error",0.3005919,0.0001459
"Test Analyzer","enable",0.3025693,0.0000001
"Test Analyzer","disable",0.3047461,0.0000001
"Test Analyzer","error",0.3064059,0.0027417
"Test Analyzer","error",0.3092924,0.0024066
"Test Analyzer","error",0.3135862,0.0019513
"Test Analyzer","error",0.3155585,0.0003834
"Test Analyzer","enable",0.3175376,0.0000001
"Test Analyzer","disable",0.320409,0.0000001
"Test Analyzer","error",0.3211234,0.0001876
"Test Analyzer","error",0.3218088,0.0027377
"Test Analyzer","error",0.3263963,0.002493
"Test Analyzer","enable",0.32945,0.0000001
"Test Analyzer","disable",0.3303958,0.0000001
"Test Analyzer","error",0.332595,0.0029904
"Test Analyzer","error",0.3370683,0.0013107
"Test Analyzer","error",0.3413229,0.0013643
"Test Analyzer","error",0.34594,0.0022687
"Test Analyzer","error",0.3502942,0.003217
"Test Analyzer","error",0.3554365,0.0001945
"Test Analyzer","error",0.3558259,0.003014
"Test Analyzer","enable",0.3607534,0.0000001
"Test Analyzer","disable",0.3615021,0.0000001
"Test Analyzer","enable",0.3618689,0.0000001
"Test Analyzer","disable",0.3647777,0.0000001
"Test Analyzer","error",0.3672864,0.0002811
"Test Analyzer","error",0.3686732,0.0028548
"Test Analyzer","enable",0.3720964,0.0000001
"Test Analyzer","disable",0.3725691,0.0000001
"Test Analyzer","error",0.3757543,0.0011439
"Test Analyzer","error",0.3790581,0.0014701
"Test Analyzer","error",0.3834337,0.0025204
"Test Analyzer","error",0.3883448,0.000518
"Test Analyzer","error",0.3914803,0.0031574
"Test Analyzer","enable",0.3979098,0.0000001
"Test Analyzer","disable",0.3986069,0.0000001
"Test Analyzer","error",0.3997145,0.0004664
"Test Analyzer","enable",0.4015751,0.0000001
"Test Analyzer","disable",0.4027933,0.0000001
"Test Analyzer","error",0.4050851,0.0027578
"Test Analyzer","enable",0.4098811,0.0000001
"Test Analyzer","disable",0.412211,0.0000001
"Test Analyzer","error",0.414937,0.0025446
"Test Analyzer","enable",0.4193614,0.0000001
"Test Analyzer","disable",0.4202776,0.0000001
"Test Analyzer","error",0.4232152,0.0006223
"Test Analyzer","error",0.4264679,0.0004081
"Test Analyzer","enable",0.4297604,0.0000001
"Test Analyzer","disable",0.4329057,0.0000001
"Test Analyzer","error",0.4332138,0.0025829
"Test Analyzer","error",0.4373551,0.000772
"Test Analyzer","enable",0.4392477,0.0000001
"Test Analyzer","disable",0.4403869,0.0000001
"Test Analyzer","error",0.4405574,0.0021158
"Test Analyzer","enable",0.4430964,0.0000001
"Test Analyzer","disable",0.4447168,0.0000001
"Test Analyzer","error",0.4449475,0.0004977
"Test Analyzer","enable",0.4484988,0.0000001
"Test Analyzer","disable",0.4512317,0.0000001
"Test Analyzer","enable",0.4522655,0.0000001
"Test Analyzer","disable",0.4542513,0.0000001
"Test Analyzer","enable",0.4543684,0.0000001
"Test Analyzer","disable",0.4550103,0.0000001
"Test Analyzer","error",0.4554514,0.0018506
"Test Analyzer","error",0.4573131,0.0001707
"Test Analyzer","enable",0.4591214,0.0000001
"Test Analyzer","disable",0.4594183,0.0000001
"Test Analyzer","enable",0.4596428,0.0000001
"Test Analyzer","disable",0.4615638,0.0000001
"Test Analyzer","enable",0.4639473,0.0000001
"Test Analyzer","disable",0.4667424,0.0000001
"Test Analyzer","error",0.4697912,0.0004996
"Test Analyzer","error",0.4731319,0.0015338
"Test Analyzer","error",0.4767298,0.0015879
"Test Analyzer","enable",0.4812353,0.0000001
"Test Analyzer","disable",0.4832018,0.0000001
"Test Analyzer","enable",0.4857639,0.0000001
"Test Analyzer","disable",0.4877982,0.0000001
"Test Analyzer","enable",0.4888161,0.0000001
"Test Analyzer","disable",0.4895592,0.0000001
"Test Analyzer","error",0.4903242,0.0011497
"Test Analyzer","error",0.4917978,0.000381
"Test Analyzer","enable",0.4924547,0.0000001
"Test Analyzer","disable",0.4946621,0.0000001
"Test Analyzer","error",0.4954936,0.0002268
"Test Analyzer","error",0.498784,0.0022318
"Test Analyzer","enable",0.5034488,0.0000001
"Test Analyzer","disable",0.50651,0.0000001
"Test Analyzer","enable",0.5076384,0.0000001
"Test Analyzer","disable",0.509225,0.0000001
"Test Analyzer","error",0.5116836,0.0017471
"Test Analyzer","error",0.5138843,0.000791
"Test Analyzer","enable",0.515648,0.0000001
"Test Analyzer","disable",0.5157334,0.0000001
"Test Analyzer","error",0.5181174,0.0019495
"Test Analyzer","error",0.5212211,0.0031234
"Test Analyzer","error",0.5261449,0.0003499
"Test Analyzer","enable",0.5285958,0.0000001
"Test Analyzer","disable",0.5298166,0.0000001
"Test Analyzer","error",0.5313107,0.0016968
"Test Analyzer","enable",0.5351418,0.0000001
"Test Analyzer","disable",0.5375736,0.0000001
"Test Analyzer","enable",0.539329,0.0000001
"Test Analyzer","disable",0.5407031,0.0000001
"Test Analyzer","enable",0.5427698,0.0000001
"Test Analyzer","disable",0.5455365,0.0000001
"Test Analyzer","enable",0.5457584,0.0000001
"Test Analyzer","disable",0.5478861,0.0000001
"Test Analyzer","error",0.5480537,0.0013515
"Test Analyzer","enable",0.5515712,0.0000001
"Test Analyzer","disable",0.5534744,0.0000001
"Test Analyzer","error",0.5544973,0.0003784
"Test Analyzer","enable",0.5558056,0.0000001
"Test Analyzer","disable",0.5585293,0.0000001
"Test Analyzer","error",0.5608309,0.0009442
"Test Analyzer","error",0.5626034,0.0031346
"Test Analyzer","enable",0.5671471,0.0000001
"Test Analyzer","disable",0.5685155,0.0000001
"Test Analyzer","enable",0.5690022,0.0000001
"Test Analyzer","disable",0.5692686,0.0000001
"Test Analyzer","enable",0.5698959,0.0000001
"Test Analyzer","disable",0.5708984,0.0000001
"Test Analyzer","enable",0.5741182,0.0000001
"Test Analyzer","disable",0.5763521,0.0000001
"Test Analyzer","error",0.5776448,0.0004271
"Test Analyzer","enable",0.5793801,0.0000001
"Test Analyzer","disable",0.5794981,0.0000001
"Test Analyzer","error",0.5803955,0.0012356
"Test Analyzer","enable",0.5834233,0.0000001
"Test Analyzer","disable",0.5866765,0.0000001
"Test Analyzer","enable",0.5882051,0.0000001
"Test Analyzer","disable",0.5893869,0.0000001
"Test Analyzer","error",0.591692,0.0006861
"Test Analyzer","enable",0.5936097,0.0000001
"Test Analyzer","disable",0.5948239,0.0000001
"Test Analyzer","enable",0.5976157,0.0000001
"Test Analyzer","disable",0.5999228,0.0000001
"Test Analyzer","enable",0.602696,0.0000001
"Test Analyzer","disable",0.6039271,0.0000001
"Test Analyzer","error",0.6049722,0.000777
"Test Analyzer","enable",0.6066332,0.0000001
"Test Analyzer","disable",0.6091209,0.0000001
"Test Analyzer","enable",0.6100496,0.0000001
"Test Analyzer","disable",0.6114506,0.0000001
"Test Analyzer","enable",0.6130661,0.0000001
"Test Analyzer","disable",0.6150051,0.0000001
"Test Analyzer","error",0.6153425,0.0029743
"Test Analyzer","error",0.6209015,0.0021946
"Test Analyzer","error",0.6235362,0.0030574
"Test Analyzer","enable",0.6287698,0.0000001
"Test Analyzer","disable",0.6288794,0.0000001
"Test Analyzer","enable",0.6321479,0.0000001
"Test Analyzer","disable",0.6345043,0.0000001
"Test Analyzer","enable",0.6355009,0.0000001
"Test Analyzer","disable",0.6361159,0.0000001
"Test Analyzer","error",0.6375377,0.0027597
"Test Analyzer","error",0.6418403,0.0012096
"Test Analyzer","enable",0.6433633,0.0000001
"Test Analyzer","disable",0.6441978,0.0000001
"Test Analyzer","error",0.6462892,0.0006161
"Test Analyzer","enable",0.6472677,0.0000001
"Test Analyzer","disable",0.6477209,0.0000001
"Test Analyzer","error",0.6496969,0.0009462
"Test Analyzer","enable",0.6510717,0.0000001
"Test Analyzer","disable",0.6512509,0.0000001
"Test Analyzer","error",0.6537658,0.0004682
"Test Analyzer","enable",0.6554363,0.0000001
"Test Analyzer","disable",0.6558049,0.0000001
"Test Analyzer","error",0.6565843,0.0012722
"Test Analyzer","enable",0.659617,0.0000001
"Test Analyzer","disable",0.6618267,0.0000001
"Test Analyzer","error",0.6645572,0.0000197
"Test Analyzer","enable",0.6653987,0.0000001
"Test Analyzer","disable",0.666974,0.0000001
"Test Analyzer","enable",0.6700034,0.0000001
"Test Analyzer","disable",0.6724425,0.0000001
"Test Analyzer","enable",0.6725855,0.0000001
"Test Analyzer","disable",0.6748488,0.0000001
"Test Analyzer","error",0.6753346,0.0000201
"Test Analyzer","error",0.6776969,0.0005787
"Test Analyzer","error",0.6785348,0.0018008
"Test Analyzer","error",0.6827264,0.0026568
"Test Analyzer","enable",0.6862237,0.0000001
"Test Analyzer","disable",0.6872113,0.0000001
"Test Analyzer","enable",0.6890959,0.0000001
"Test Analyzer","disable",0.6890979,0.0000001
"Test Analyzer","enable",0.6908123,0.0000001
"Test Analyzer","disable",0.6915693,0.0000001
"Test Analyzer","enable",0.6944645,0.0000001
"Test Analyzer","disable",0.6960275,0.0000001
"Test Analyzer","enable",0.6981074,0.0000001
"Test Analyzer","disable",0.6994471,0.0000001
"Test Analyzer","error",0.7011944,0.000804
"Test Analyzer","enable",0.7034584,0.0000001
"Test Analyzer","disable",0.7049888,0.0000001
"Test Analyzer","error",0.7051362,0.0019675
"Test Analyzer","enable",0.7102603,0.0000001
"Test Analyzer","disable",0.712225,0.0000001
"Test Analyzer","enable",0.7143004,0.0000001
"Test Analyzer","disable",0.7158588,0.0000001
"Test Analyzer","error",0.717117,0.0022265
"Test Analyzer","enable",0.7216613,0.0000001
"Test Analyzer","disable",0.7233305,0.0000001
"Test Analyzer","error",0.7264794,0.0020548
"Test Analyzer","enable",0.7309566,0.0000001
"Test Analyzer","disable",0.7328648,0.0000001
"Test Analyzer","error",0.7333232,0.0018039
"Test Analyzer","error",0.7373861,0.0002699
"Test Analyzer","enable",0.7407958,0.0000001
"Test Analyzer","disable",0.7428371,0.0000001
"Test Analyzer","error",0.745093,0.0025936
"Test Analyzer","error",0.7489726,0.0016827
"Test Analyzer","enable",0.7535052,0.0000001
"Test Analyzer","disable",0.7543741,0.0000001
"Test Analyzer","enable",0.7568644,0.0000001
"Test Analyzer","disable",0.7596237,0.0000001
"Test Analyzer","enable",0.7612939,0.0000001
"Test Analyzer","disable",0.7620427,0.0000001
"Test Analyzer","error",0.7647346,0.0010529
"Test Analyzer","enable",0.7676547,0.0000001
"Test Analyzer","disable",0.7684968,0.0000001
"Test Analyzer","error",0.7712119,0.0000491
"Test Analyzer","enable",0.7716082,0.0000001
"Test Analyzer","disable",0.772291,0.0000001
"Test Analyzer","enable",0.7752839,0.0000001
"Test Analyzer","disable",0.7763817,0.0000001
"Test Analyzer","error",0.7767106,0.0022079
"Test Analyzer","enable",0.7806756,0.0000001
"Test Analyzer","disable",0.7817601,0.0000001
"Test Analyzer","enable",0.7823275,0.0000001
"Test Analyzer","disable",0.7828834,0.0000001
"Test Analyzer","enable",0.7852423,0.0000001
"Test Analyzer","disable",0.7855716,0.0000001
"Test Analyzer","enable",0.7861415,0.0000001
"Test Analyzer","disable",0.7887402,0.0000001
"Test Analyzer","enable",0.7917544,0.0000001
"Test Analyzer","disable",0.794527,0.0000001
"Test Analyzer","enable",0.7964095,0.0000001
"Test Analyzer","disable",0.7983401,0.0000001
"Test Analyzer","enable",0.7983851,0.0000001
"Test Analyzer","disable",0.7992549,0.0000001
"Test Analyzer","enable",0.8016101,0.0000001
"Test Analyzer","disable",0.8037968,0.0000001
"Test Analyzer","error",0.805596,0.0014426
"Test Analyzer","enable",0.8070395,0.0000001
"Test Analyzer","disable",0.8077089,0.0000001
"Test Analyzer","enable",0.8100811,0.0000001
"Test Analyzer","disable",0.8132245,0.0000001
"Test Analyzer","enable",0.813861,0.0000001
"Test Analyzer","disable",0.8160722,0.0000001
"Test Analyzer","enable",0.817216,0.0000001
"Test Analyzer","disable",0.8189115,0.0000001
"Test Analyzer","error",0.8204994,0.0022007
"Test Analyzer","enable",0.8247664,0.0000001
"Test Analyzer","disable",0.8270103,0.0000001
"Test Analyzer","error",0.8272961,0.0024324
"Test Analyzer","error",0.8297467,0.0001641
"Test Analyzer","enable",0.831166,0.0000001
"Test Analyzer","disable",0.8342058,0.0000001
"Test Analyzer","error",0.8373471,0.0019538
"Test Analyzer","error",0.8417771,0.0009308
"Test Analyzer","enable",0.844768,0.0000001
"Test Analyzer","disable",0.8478172,0.0000001
"Test Analyzer","enable",0.8505078,0.0000001
"Test Analyzer","disable",0.8508312,0.0000001
"Test Analyzer","enable",0.8535868,0.0000001
"Test Analyzer","disable",0.855314,0.0000001
"Test Analyzer","error",0.8565127,0.0014015
"Test Analyzer","enable",0.8590366,0.0000001
"Test Analyzer","disable",0.8612968,0.0000001
"Test Analyzer","error",0.8637247,0.0024128
"Test Analyzer","error",0.8683106,0.0029711
"Test Analyzer","error",0.8719814,0.0002321
"Test Analyzer","enable",0.8741245,0.0000001
"Test Analyzer","disable",0.8757891,0.0000001
"Test Analyzer","error",0.876942,0.0005431
"Test Analyzer","enable",0.8802573,0.0000001
"Test Analyzer","disable",0.8827002,0.0000001
"Test Analyzer","error",0.8828119,0.0026022
"Test Analyzer","enable",0.8881885,0.0000001
"Test Analyzer","disable",0.8902798,0.0000001
"Test Analyzer","error",0.8928273,0.002225
"Test Analyzer","error",0.8965392,0.002365
"Test Analyzer","error",0.900357,0.000891
"Test Analyzer","error",0.9037189,0.0031921
"Test Analyzer","enable",0.9086675,0.0000001
"Test Analyzer","disable",0.9106298,0.0000001
"Test Analyzer","error",0.9116487,0.0014568
"Test Analyzer","enable",0.9157624,0.0000001
"Test Analyzer","disable",0.9162592,0.0000001
"Test Analyzer","error",0.9180725,0.0001814
"Test Analyzer","error",0.9212344,0.0019671
"Test Analyzer","error",0.9263312,0.0000297
"Test Analyzer","enable",0.9290812,0.0000001
"Test Analyzer","disable",0.9317811,0.0000001
"Test Analyzer","enable",0.9339514,0.0000001
"Test Analyzer","disable",0.9361702,0.0000001
"Test Analyzer","error",0.9389954,0.0003713
"Test Analyzer","enable",0.9395764,0.0000001
"Test Analyzer","disable",0.9425946,0.0000001
"Test Analyzer","enable",0.9429978,0.0000001
"Test Analyzer","disable",0.9430562,0.0000001
"Test Analyzer","enable",0.9454532,0.0000001
"Test Analyzer","disable",0.948359,0.0000001
"Test Analyzer","error",0.9497811,0.0007177
"Test Analyzer","enable",0.9517221,0.0000001
"Test Analyzer","disable",0.9539305,0.0000001
"Test Analyzer","enable",0.9555735,0.0000001
